     0  1  2  3  4  5  6  7  8  9  a  b  c  d  e  f    0123456789abcdef
00: 40 17 17 0d 00 0a 00 00 00 00 00 00 00 00 00 00    @???.?..........
10: 00 00 00 00 00 00 01 c8 1e 55 00 00 00 00 40 64    ......???U....@d
20: 04 49 2e 01 5c 00 5c 00 5c 00 5c 00 00 00 00 01    ?I.?\.\.\.\....?
30: f4 19 32 20 3c 01 ce b6 28 28 00 00 00 00 25 80    ??2 <???((....%?
40: 10 25 03 80 01 86 00 00 2c 00 00 00 00 00 00 00    ?%????..,.......
50: 00 0a 0c 00 00 00 00 00 00 00 00 00 00 00 00 00    .??.............
60: 1d 17 00 16 1e 08 09 01 14 62 8b 01 01 00 00 00    ??.??????b???...
70: 00 00 00 00 00 00 00 00 00 00 00 00 00 00 00 00    ................
80: 00 00 00 00 00 00 00 00 00 00 00 00 00 00 00 00    ................
90: 00 00 00 00 00 00 00 00 00 00 00 00 00 00 00 00    ................
a0: 00 00 00 00 00 00 00 00 00 00 00 00 00 00 00 00    ................
b0: 00 00 00 00 00 00 00 00 00 00 00 00 00 00 00 00    ................
c0: 00 00 00 00 00 00 00 00 00 00 00 00 00 00 00 00    ................
d0: 00 00 00 00 00 00 00 00 00 00 00 00 00 00 00 00    ................
e0: 00 00 00 00 00 00 00 00 00 00 00 00 00 00 00 00    ................
f0: 00 00 00 00 00 00 00 00 00 00 00 01 00 00 00 00    ...........?....
