     0  1  2  3  4  5  6  7  8  9  a  b  c  d  e  f    0123456789abcdef
00: 40 17 17 0d 00 0a 00 00 00 00 00 00 00 00 00 00    @???.?..........
10: 00 00 00 00 00 00 01 c8 1e 6e 00 00 00 00 40 64    ......???n....@d
20: 04 49 2e 01 70 00 70 00 70 00 70 00 00 00 00 01    ?I.?p.p.p.p....?
30: f4 19 32 20 3c 01 27 27 32 31 00 00 00 00 58 32    ??2 <?''21....X2
40: 10 25 03 80 01 9f 00 00 2c 00 00 00 00 00 09 00    ?%????..,.....?.
50: 00 00 02 00 00 00 00 00 00 00 00 00 00 00 00 00    ..?.............
60: 1d 17 00 16 1e 08 09 01 14 62 8b 01 01 00 00 00    ??.??????b???...
70: 00 00 00 00 00 00 00 00 00 00 00 00 00 00 00 00    ................
80: 00 00 00 00 00 00 00 00 00 00 00 00 00 00 00 00    ................
90: 00 00 00 00 00 00 00 00 00 00 00 00 00 00 00 00    ................
a0: 00 00 00 00 00 00 00 00 00 00 00 00 00 00 00 00    ................
b0: 00 00 00 00 00 00 00 00 00 00 00 00 00 00 00 00    ................
c0: 00 00 00 00 00 00 00 00 00 00 00 00 00 00 00 00    ................
d0: 00 00 00 00 00 00 00 00 00 00 00 00 00 00 00 00    ................
e0: 00 00 00 00 00 00 00 00 00 00 00 00 00 00 00 00    ................
f0: 00 00 00 00 00 00 00 00 00 00 00 01 00 00 00 00    ...........?....
